f_Hz,omega_rad_s,Z_real_Ohm,Z_imag_Ohm,Z_mag_Ohm,Z_phase_deg
1.000000e-02,6.283185e-02,4.786555e+03,-2.017744e+02,4.790806e+03,-2.4138
1.263134e-02,7.936502e-02,4.764384e+03,-1.799552e+02,4.767781e+03,-2.1631
1.595506e-02,1.002486e-01,4.744635e+03,-1.606333e+02,4.747353e+03,-1.9391
2.015338e-02,1.266274e-01,4.727035e+03,-1.435536e+02,4.729214e+03,-1.7395
2.545641e-02,1.599473e-01,4.711342e+03,-1.284938e+02,4.713094e+03,-1.5623
3.215484e-02,2.020348e-01,4.697340e+03,-1.152615e+02,4.698754e+03,-1.4056
4.061586e-02,2.551970e-01,4.684832e+03,-1.036922e+02,4.685979e+03,-1.2680
5.130326e-02,3.223479e-01,4.673644e+03,-9.364785e+01,4.674582e+03,-1.1479
6.480286e-02,4.071684e-01,4.663617e+03,-8.501554e+01,4.664392e+03,-1.0444
8.185467e-02,5.143081e-01,4.654608e+03,-7.770706e+01,4.655256e+03,-0.9564
1.033934e-01,6.496398e-01,4.646484e+03,-7.165886e+01,4.647037e+03,-0.8836
1.305997e-01,8.205818e-01,4.639125e+03,-6.683265e+01,4.639606e+03,-0.8254
1.649648e-01,1.036504e+00,4.632416e+03,-6.321654e+01,4.632847e+03,-0.7818
2.083726e-01,1.309244e+00,4.626249e+03,-6.082709e+01,4.626648e+03,-0.7533
2.632024e-01,1.653749e+00,4.620519e+03,-5.971204e+01,4.620904e+03,-0.7404
3.324598e-01,2.088906e+00,4.615121e+03,-5.995406e+01,4.615510e+03,-0.7443
4.199411e-01,2.638568e+00,4.609948e+03,-6.167557e+01,4.610360e+03,-0.7665
5.304417e-01,3.332864e+00,4.604886e+03,-6.504482e+01,4.605345e+03,-0.8093
6.700188e-01,4.209852e+00,4.599810e+03,-7.028342e+01,4.600347e+03,-0.8754
8.463232e-01,5.317605e+00,4.594581e+03,-7.767550e+01,4.595237e+03,-0.9685
1.069019e+00,6.716846e+00,4.589032e+03,-8.757867e+01,4.589867e+03,-1.0933
1.350314e+00,8.484273e+00,4.582965e+03,-1.004370e+02,4.584065e+03,-1.2555
1.705627e+00,1.071677e+01,4.576133e+03,-1.167957e+02,4.577623e+03,-1.4620
2.154435e+00,1.353671e+01,4.568224e+03,-1.373183e+02,4.570288e+03,-1.7218
2.721339e+00,1.709868e+01,4.558836e+03,-1.628042e+02,4.561742e+03,-2.0453
3.437414e+00,2.159791e+01,4.547440e+03,-1.942065e+02,4.551585e+03,-2.4454
4.341913e+00,2.728105e+01,4.533336e+03,-2.326476e+02,4.539302e+03,-2.9378
5.484417e+00,3.445961e+01,4.515587e+03,-2.794273e+02,4.524224e+03,-3.5410
6.927551e+00,4.352708e+01,4.492932e+03,-3.360162e+02,4.505479e+03,-4.2771
8.750422e+00,5.498052e+01,4.463673e+03,-4.040221e+02,4.481920e+03,-5.1719
1.105295e+01,6.944774e+01,4.425534e+03,-4.851083e+02,4.452042e+03,-6.2555
1.396135e+01,8.772177e+01,4.375493e+03,-5.808357e+02,4.413877e+03,-7.5617
1.763505e+01,1.108043e+02,4.309613e+03,-6.923870e+02,4.364878e+03,-9.1272
2.227543e+01,1.399607e+02,4.222915e+03,-8.201273e+02,4.301816e+03,-10.9905
2.813684e+01,1.767890e+02,4.109410e+03,-9.629643e+02,4.220729e+03,-13.1882
3.554059e+01,2.233081e+02,3.962425e+03,-1.117523e+03,4.116998e+03,-15.7500
4.489251e+01,2.820680e+02,3.775468e+03,-1.277276e+03,3.985673e+03,-18.6912
5.670524e+01,3.562895e+02,3.543777e+03,-1.431973e+03,3.822160e+03,-22.0027
7.162629e+01,4.500413e+02,3.266486e+03,-1.567955e+03,3.623315e+03,-25.6416
9.047357e+01,5.684622e+02,2.948807e+03,-1.669914e+03,3.388816e+03,-29.5229
1.142802e+02,7.180437e+02,2.603088e+03,-1.724214e+03,3.122336e+03,-33.5194
1.443512e+02,9.069851e+02,2.247587e+03,-1.722794e+03,2.831901e+03,-37.4705
1.823348e+02,1.145643e+03,1.902815e+03,-1.665845e+03,2.528981e+03,-41.2010
2.303132e+02,1.447101e+03,1.586837e+03,-1.561751e+03,2.226458e+03,-44.5435
2.909163e+02,1.827881e+03,1.311699e+03,-1.424316e+03,1.936293e+03,-47.3570
3.674662e+02,2.308858e+03,1.082313e+03,-1.268847e+03,1.667745e+03,-49.5362
4.641589e+02,2.916396e+03,8.975890e+02,-1.108898e+03,1.426647e+03,-51.0118
5.862947e+02,3.683798e+03,7.526398e+02,-9.545680e+02,1.215593e+03,-51.7456
7.405685e+02,4.653129e+03,6.409285e+02,-8.122438e+02,1.034664e+03,-51.7236
9.354369e+02,5.877523e+03,5.557911e+02,-6.851954e+02,8.822678e+02,-50.9530
1.181582e+03,7.424097e+03,4.912679e+02,-5.744501e+02,7.558685e+02,-49.4630
1.492496e+03,9.377626e+03,4.424211e+02,-4.796139e+02,6.525074e+02,-47.3099
1.885221e+03,1.184519e+04,4.053476e+02,-3.995038e+02,5.691309e+02,-44.5840
2.381286e+03,1.496206e+04,3.770513e+02,-3.325809e+02,5.027701e+02,-41.4141
3.007883e+03,1.889908e+04,3.552696e+02,-2.772213e+02,4.506308e+02,-37.9654
3.799357e+03,2.387207e+04,3.383046e+02,-2.318713e+02,4.101394e+02,-34.4264
4.799096e+03,3.015361e+04,3.248785e+02,-1.951265e+02,3.789728e+02,-30.9896
6.061899e+03,3.808803e+04,3.140157e+02,-1.657642e+02,3.550826e+02,-27.8289
7.656988e+03,4.811028e+04,3.049510e+02,-1.427471e+02,3.367073e+02,-25.0842
9.671799e+03,6.076970e+04,2.970564e+02,-1.252098e+02,3.223662e+02,-22.8555
1.221677e+04,7.676025e+04,2.897839e+02,-1.124339e+02,3.108313e+02,-21.2059
1.543142e+04,9.695845e+04,2.826193e+02,-1.038128e+02,3.010826e+02,-20.1695
1.949194e+04,1.224715e+05,2.750483e+02,-9.880467e+01,2.922567e+02,-19.7596
2.462092e+04,1.546978e+05,2.665391e+02,-9.687313e+01,2.835975e+02,-19.9736
3.109952e+04,1.954040e+05,2.565510e+02,-9.741497e+01,2.744232e+02,-20.7923
3.928284e+04,2.468214e+05,2.445846e+02,-9.968699e+01,2.641195e+02,-22.1747
4.961948e+04,3.117684e+05,2.302862e+02,-1.027579e+02,2.521724e+02,-24.0473
6.267603e+04,3.938051e+05,2.135947e+02,-1.055309e+02,2.382424e+02,-26.2926
7.916819e+04,4.974284e+05,1.948821e+02,-1.068776e+02,2.222653e+02,-28.7413
1.000000e+05,6.283185e+05,1.749919e+02,-1.058790e+02,2.045300e+02,-31.1761
