f_Hz,omega_rad_s,Z_real_Ohm,Z_imag_Ohm,Z_mag_Ohm,Z_phase_deg
1.000000e-02,6.283185e-02,2.359400e+03,-1.996973e+02,2.367836e+03,-4.8379
1.263134e-02,7.936502e-02,2.337401e+03,-1.777584e+02,2.344150e+03,-4.3489
1.595506e-02,1.002486e-01,2.317824e+03,-1.582548e+02,2.323220e+03,-3.9059
2.015338e-02,1.266274e-01,2.300401e+03,-1.409221e+02,2.304714e+03,-3.5055
2.545641e-02,1.599473e-01,2.284895e+03,-1.255259e+02,2.288341e+03,-3.1445
3.215484e-02,2.020348e-01,2.271093e+03,-1.118587e+02,2.273846e+03,-2.8197
4.061586e-02,2.551970e-01,2.258806e+03,-9.973748e+01,2.261007e+03,-2.5283
5.130326e-02,3.223479e-01,2.247866e+03,-8.900106e+01,2.249627e+03,-2.2674
6.480286e-02,4.071684e-01,2.238123e+03,-7.950828e+01,2.239535e+03,-2.0346
8.185467e-02,5.143081e-01,2.229442e+03,-7.113627e+01,2.230577e+03,-1.8276
1.033934e-01,6.496398e-01,2.221705e+03,-6.377910e+01,2.222620e+03,-1.6444
1.305997e-01,8.205818e-01,2.214804e+03,-5.734669e+01,2.215546e+03,-1.4832
1.649648e-01,1.036504e+00,2.208643e+03,-5.176412e+01,2.209250e+03,-1.3426
2.083726e-01,1.309244e+00,2.203136e+03,-4.697112e+01,2.203637e+03,-1.2214
2.632024e-01,1.653749e+00,2.198205e+03,-4.292207e+01,2.198624e+03,-1.1186
3.324598e-01,2.088906e+00,2.193778e+03,-3.958621e+01,2.194136e+03,-1.0338
4.199411e-01,2.638568e+00,2.189792e+03,-3.694840e+01,2.190104e+03,-0.9667
5.304417e-01,3.332864e+00,2.186186e+03,-3.501026e+01,2.186466e+03,-0.9175
6.700188e-01,4.209852e+00,2.182902e+03,-3.379192e+01,2.183164e+03,-0.8869
8.463232e-01,5.317605e+00,2.179887e+03,-3.333434e+01,2.180142e+03,-0.8761
1.069019e+00,6.716846e+00,2.177086e+03,-3.370252e+01,2.177347e+03,-0.8869
1.350314e+00,8.484273e+00,2.174444e+03,-3.498944e+01,2.174725e+03,-0.9219
1.705627e+00,1.071677e+01,2.171901e+03,-3.732117e+01,2.172222e+03,-0.9845
2.154435e+00,1.353671e+01,2.169392e+03,-4.086319e+01,2.169776e+03,-1.0791
2.721339e+00,1.709868e+01,2.166838e+03,-4.582815e+01,2.167323e+03,-1.2116
3.437414e+00,2.159791e+01,2.164146e+03,-5.248523e+01,2.164783e+03,-1.3893
4.341913e+00,2.728105e+01,2.161196e+03,-6.117126e+01,2.162062e+03,-1.6213
5.484417e+00,3.445961e+01,2.157829e+03,-7.230363e+01,2.159040e+03,-1.9191
6.927551e+00,4.352708e+01,2.153833e+03,-8.639463e+01,2.155565e+03,-2.2970
8.750422e+00,5.498052e+01,2.148913e+03,-1.040664e+02,2.151432e+03,-2.7725
1.105295e+01,6.944774e+01,2.142658e+03,-1.260643e+02,2.146364e+03,-3.3671
1.396135e+01,8.772177e+01,2.134487e+03,-1.532656e+02,2.139982e+03,-4.1070
1.763505e+01,1.108043e+02,2.123574e+03,-1.866749e+02,2.131763e+03,-5.0237
2.227543e+01,1.399607e+02,2.108752e+03,-2.273945e+02,2.120977e+03,-6.1546
2.813684e+01,1.767890e+02,2.088382e+03,-2.765476e+02,2.106613e+03,-7.5433
3.554059e+01,2.233081e+02,2.060199e+03,-3.351214e+02,2.087277e+03,-9.2391
4.489251e+01,2.820680e+02,2.021172e+03,-4.036822e+02,2.061090e+03,-11.2949
5.670524e+01,3.562895e+02,1.967437e+03,-4.819157e+02,2.025599e+03,-13.7634
7.162629e+01,4.500413e+02,1.894455e+03,-5.679706e+02,1.977764e+03,-16.6891
9.047357e+01,5.684622e+02,1.797606e+03,-6.576961e+02,1.914145e+03,-20.0962
1.142802e+02,7.180437e+02,1.673432e+03,-7.440833e+02,1.831402e+03,-23.9721
1.443512e+02,9.069851e+02,1.521495e+03,-8.174958e+02,1.727207e+03,-28.2490
1.823348e+02,1.145643e+03,1.346226e+03,-8.673156e+02,1.601424e+03,-32.7919
2.303132e+02,1.447101e+03,1.157516e+03,-8.850004e+02,1.457075e+03,-37.4004
2.909163e+02,1.827881e+03,9.689545e+02,-8.672984e+02,1.300415e+03,-41.8313
3.674662e+02,2.308858e+03,7.940894e+02,-8.176357e+02,1.139783e+03,-45.8370
4.641589e+02,2.916396e+03,6.427068e+02,-7.446820e+02,9.836785e+02,-49.2038
5.862947e+02,3.683798e+03,5.191159e+02,-6.591204e+02,8.390000e+02,-51.7764
7.405685e+02,4.653129e+03,4.227733e+02,-5.706081e+02,7.101625e+02,-53.4646
9.354369e+02,5.877523e+03,3.501432e+02,-4.861602e+02,5.991260e+02,-54.2377
1.181582e+03,7.424097e+03,2.965451e+02,-4.099409e+02,5.059551e+02,-54.1186
1.492496e+03,9.377626e+03,2.573804e+02,-3.438318e+02,4.294939e+02,-53.1828
1.885221e+03,1.184519e+04,2.287101e+02,-2.881929e+02,3.679178e+02,-51.5645
2.381286e+03,1.496206e+04,2.073974e+02,-2.425106e+02,3.191004e+02,-49.4626
3.007883e+03,1.889908e+04,1.910302e+02,-2.058422e+02,2.808265e+02,-47.1374
3.799357e+03,2.387207e+04,1.777681e+02,-1.770770e+02,2.509138e+02,-44.8884
4.799096e+03,3.015361e+04,1.661907e+02,-1.550588e+02,2.272941e+02,-43.0154
6.061899e+03,3.808803e+04,1.551847e+02,-1.386192e+02,2.080806e+02,-41.7729
7.656988e+03,4.811028e+04,1.438902e+02,-1.265599e+02,1.916293e+02,-41.3335
9.671799e+03,6.076970e+04,1.317136e+02,-1.176300e+02,1.765936e+02,-41.7672
1.221677e+04,7.676025e+04,1.183922e+02,-1.105452e+02,1.619782e+02,-43.0369
1.543142e+04,9.695845e+04,1.040651e+02,-1.040885e+02,1.471868e+02,-45.0064
1.949194e+04,1.224715e+05,8.926973e+01,-9.728810e+01,1.320381e+02,-47.4611
2.462092e+04,1.546978e+05,7.480497e+01,-8.959459e+01,1.167175e+02,-50.1406
3.109952e+04,1.954040e+05,6.148830e+01,-8.094496e+01,1.016509e+02,-52.7786
3.928284e+04,2.468214e+05,4.992118e+01,-7.166268e+01,8.733650e+01,-55.1384
4.961948e+04,3.117684e+05,4.037457e+01,-6.225240e+01,7.419884e+01,-57.0341
6.267603e+04,3.938051e+05,3.281530e+01,-5.320291e+01,6.250915e+01,-58.3339
7.916819e+04,4.974284e+05,2.701303e+01,-4.487210e+01,5.237566e+01,-58.9520
1.000000e+05,6.283185e+05,2.265426e+01,-3.745896e+01,4.377659e+01,-58.8355
