f_Hz,omega_rad_s,Z_real_Ohm,Z_imag_Ohm,Z_mag_Ohm,Z_phase_deg
1.000000e-02,6.283185e-02,1.454967e+03,-2.424404e+02,1.475028e+03,-9.4602
1.263134e-02,7.936502e-02,1.428246e+03,-2.157413e+02,1.444449e+03,-8.5898
1.595506e-02,1.002486e-01,1.404470e+03,-1.919911e+02,1.417532e+03,-7.7841
2.015338e-02,1.266274e-01,1.383313e+03,-1.708661e+02,1.393826e+03,-7.0415
2.545641e-02,1.599473e-01,1.364487e+03,-1.520784e+02,1.372935e+03,-6.3596
3.215484e-02,2.020348e-01,1.347734e+03,-1.353725e+02,1.354515e+03,-5.7358
4.061586e-02,2.551970e-01,1.332825e+03,-1.205214e+02,1.338263e+03,-5.1669
5.130326e-02,3.223479e-01,1.319557e+03,-1.073236e+02,1.323914e+03,-4.6498
6.480286e-02,4.071684e-01,1.307748e+03,-9.560078e+01,1.311238e+03,-4.1811
8.185467e-02,5.143081e-01,1.297238e+03,-8.519505e+01,1.300032e+03,-3.7575
1.033934e-01,6.496398e-01,1.287880e+03,-7.596710e+01,1.290119e+03,-3.3757
1.305997e-01,8.205818e-01,1.279549e+03,-6.779438e+01,1.281344e+03,-3.0329
1.649648e-01,1.036504e+00,1.272129e+03,-6.056957e+01,1.273570e+03,-2.7260
2.083726e-01,1.309244e+00,1.265519e+03,-5.419939e+01,1.266679e+03,-2.4524
2.632024e-01,1.653749e+00,1.259627e+03,-4.860348e+01,1.260564e+03,-2.2097
3.324598e-01,2.088906e+00,1.254372e+03,-4.371371e+01,1.255133e+03,-1.9959
4.199411e-01,2.638568e+00,1.249681e+03,-3.947358e+01,1.250304e+03,-1.8092
5.304417e-01,3.332864e+00,1.245488e+03,-3.583794e+01,1.246003e+03,-1.6482
6.700188e-01,4.209852e+00,1.241734e+03,-3.277299e+01,1.242166e+03,-1.5119
8.463232e-01,5.317605e+00,1.238365e+03,-3.025654e+01,1.238735e+03,-1.3996
1.069019e+00,6.716846e+00,1.235332e+03,-2.827861e+01,1.235655e+03,-1.3114
1.350314e+00,8.484273e+00,1.232588e+03,-2.684245e+01,1.232880e+03,-1.2476
1.705627e+00,1.071677e+01,1.230090e+03,-2.596594e+01,1.230364e+03,-1.2093
2.154435e+00,1.353671e+01,1.227796e+03,-2.568356e+01,1.228065e+03,-1.1984
2.721339e+00,1.709868e+01,1.225664e+03,-2.604892e+01,1.225941e+03,-1.2175
3.437414e+00,2.159791e+01,1.223650e+03,-2.713804e+01,1.223951e+03,-1.2705
4.341913e+00,2.728105e+01,1.221706e+03,-2.905343e+01,1.222052e+03,-1.3623
5.484417e+00,3.445961e+01,1.219779e+03,-3.192920e+01,1.220197e+03,-1.4994
6.927551e+00,4.352708e+01,1.217802e+03,-3.593711e+01,1.218332e+03,-1.6903
8.750422e+00,5.498052e+01,1.215693e+03,-4.129394e+01,1.216394e+03,-1.9454
1.105295e+01,6.944774e+01,1.213343e+03,-4.826982e+01,1.214303e+03,-2.2782
1.396135e+01,8.772177e+01,1.210607e+03,-5.719746e+01,1.211957e+03,-2.7050
1.763505e+01,1.108043e+02,1.207281e+03,-6.848151e+01,1.209222e+03,-3.2466
2.227543e+01,1.399607e+02,1.203080e+03,-8.260631e+01,1.205913e+03,-3.9279
2.813684e+01,1.767890e+02,1.197599e+03,-1.001391e+02,1.201778e+03,-4.7798
3.554059e+01,2.233081e+02,1.190257e+03,-1.217228e+02,1.196465e+03,-5.8391
4.489251e+01,2.820680e+02,1.180232e+03,-1.480478e+02,1.189482e+03,-7.1498
5.670524e+01,3.562895e+02,1.166368e+03,-1.797861e+02,1.180143e+03,-8.7627
7.162629e+01,4.500413e+02,1.147077e+03,-2.174629e+02,1.167508e+03,-10.7347
9.047357e+01,5.684622e+02,1.120258e+03,-2.612313e+02,1.150313e+03,-13.1261
1.142802e+02,7.180437e+02,1.083305e+03,-3.105233e+02,1.126932e+03,-15.9946
1.443512e+02,9.069851e+02,1.033309e+03,-3.635857e+02,1.095409e+03,-19.3852
1.823348e+02,1.145643e+03,9.676184e+02,-4.170165e+02,1.053655e+03,-23.3147
2.303132e+02,1.447101e+03,8.848439e+02,-4.655921e+02,9.998623e+02,-27.7527
2.909163e+02,1.827881e+03,7.861221e+02,-5.028223e+02,9.331765e+02,-32.6039
3.674662e+02,2.308858e+03,6.760040e+02,-5.225085e+02,8.543984e+02,-37.7018
4.641589e+02,2.916396e+03,5.620909e+02,-5.209008e+02,7.663444e+02,-42.8219
5.862947e+02,3.683798e+03,4.531180e+02,-4.982704e+02,6.734904e+02,-47.7172
7.405685e+02,4.653129e+03,3.563797e+02,-4.587915e+02,5.809442e+02,-52.1607
9.354369e+02,5.877523e+03,2.759818e+02,-4.088202e+02,4.932544e+02,-55.9779
1.181582e+03,7.424097e+03,2.126712e+02,-3.547562e+02,4.136194e+02,-59.0579
1.492496e+03,9.377626e+03,1.648223e+02,-3.016051e+02,3.437034e+02,-61.3441
1.885221e+03,1.184519e+04,1.296968e+02,-2.525374e+02,2.838950e+02,-62.8161
2.381286e+03,1.496206e+04,1.043960e+02,-2.091209e+02,2.337308e+02,-63.4710
3.007883e+03,1.889908e+04,8.636803e+01,-1.717987e+02,1.922869e+02,-63.3100
3.799357e+03,2.387207e+04,7.358001e+01,-1.403429e+02,1.584618e+02,-62.3325
4.799096e+03,3.015361e+04,6.450643e+01,-1.141883e+02,1.311490e+02,-60.5373
6.061899e+03,3.808803e+04,5.804361e+01,-9.264391e+01,1.093250e+02,-57.9319
7.656988e+03,4.811028e+04,5.341070e+01,-7.501170e+01,9.208397e+01,-54.5479
9.671799e+03,6.076970e+04,5.006218e+01,-6.064650e+01,7.863981e+01,-50.4612
1.221677e+04,7.676025e+04,4.761924e+01,-4.898026e+01,6.831294e+01,-45.8072
1.543142e+04,9.695845e+04,4.581917e+01,-3.952741e+01,6.051291e+01,-40.7838
1.949194e+04,1.224715e+05,4.447938e+01,-3.188051e+01,5.472461e+01,-35.6310
2.462092e+04,1.546978e+05,4.347235e+01,-2.570188e+01,5.050180e+01,-30.5926
3.109952e+04,1.954040e+05,4.270836e+01,-2.071396e+01,4.746654e+01,-25.8738
3.928284e+04,2.468214e+05,4.212376e+01,-1.668990e+01,4.530964e+01,-21.6140
4.961948e+04,3.117684e+05,4.167294e+01,-1.344503e+01,4.378816e+01,-17.8814
6.267603e+04,3.938051e+05,4.132291e+01,-1.082943e+01,4.271837e+01,-14.6852
7.916819e+04,4.974284e+05,4.104949e+01,-8.721672e+00,4.196580e+01,-11.9951
1.000000e+05,6.283185e+05,4.083482e+01,-7.023520e+00,4.143443e+01,-9.7593
