f_Hz,omega_rad_s,Z_real_Ohm,Z_imag_Ohm,Z_mag_Ohm,Z_phase_deg
1.000000e-02,6.283185e-02,4.859130e+03,-1.987072e+02,4.863191e+03,-2.3417
1.263134e-02,7.936502e-02,4.837299e+03,-1.772080e+02,4.840544e+03,-2.0980
1.595506e-02,1.002486e-01,4.817856e+03,-1.581689e+02,4.820451e+03,-1.8803
2.015338e-02,1.266274e-01,4.800532e+03,-1.413390e+02,4.802612e+03,-1.6864
2.545641e-02,1.599473e-01,4.785090e+03,-1.264998e+02,4.786762e+03,-1.5143
3.215484e-02,2.020348e-01,4.771315e+03,-1.134623e+02,4.772664e+03,-1.3622
4.061586e-02,2.551970e-01,4.759016e+03,-1.020655e+02,4.760110e+03,-1.2286
5.130326e-02,3.223479e-01,4.748021e+03,-9.217460e+01,4.748915e+03,-1.1122
6.480286e-02,4.071684e-01,4.738174e+03,-8.367996e+01,4.738913e+03,-1.0118
8.185467e-02,5.143081e-01,4.729336e+03,-7.649698e+01,4.729954e+03,-0.9267
1.033934e-01,6.496398e-01,4.721376e+03,-7.056603e+01,4.721903e+03,-0.8563
1.305997e-01,8.205818e-01,4.714177e+03,-6.585328e+01,4.714637e+03,-0.8003
1.649648e-01,1.036504e+00,4.707628e+03,-6.235220e+01,4.708041e+03,-0.7588
2.083726e-01,1.309244e+00,4.701623e+03,-6.008584e+01,4.702007e+03,-0.7322
2.632024e-01,1.653749e+00,4.696061e+03,-5.911005e+01,4.696433e+03,-0.7212
3.324598e-01,2.088906e+00,4.690841e+03,-5.951770e+01,4.691218e+03,-0.7269
4.199411e-01,2.638568e+00,4.685858e+03,-6.144422e+01,4.686260e+03,-0.7513
5.304417e-01,3.332864e+00,4.681002e+03,-6.507454e+01,4.681454e+03,-0.7965
6.700188e-01,4.209852e+00,4.676153e+03,-7.065165e+01,4.676687e+03,-0.8656
8.463232e-01,5.317605e+00,4.671175e+03,-7.848717e+01,4.671834e+03,-0.9626
1.069019e+00,6.716846e+00,4.665904e+03,-8.897407e+01,4.666752e+03,-1.0924
1.350314e+00,8.484273e+00,4.660143e+03,-1.026017e+02,4.661273e+03,-1.2613
1.705627e+00,1.071677e+01,4.653647e+03,-1.199734e+02,4.655194e+03,-1.4768
2.154435e+00,1.353671e+01,4.646099e+03,-1.418266e+02,4.648263e+03,-1.7485
2.721339e+00,1.709868e+01,4.637085e+03,-1.690547e+02,4.640165e+03,-2.0879
3.437414e+00,2.159791e+01,4.626054e+03,-2.027290e+02,4.630494e+03,-2.5093
4.341913e+00,2.728105e+01,4.612264e+03,-2.441196e+02,4.618720e+03,-3.0297
5.484417e+00,3.445961e+01,4.594707e+03,-2.947077e+02,4.604149e+03,-3.6700
6.927551e+00,4.352708e+01,4.572007e+03,-3.561821e+02,4.585860e+03,-4.4546
8.750422e+00,5.498052e+01,4.542279e+03,-4.304037e+02,4.562625e+03,-5.4129
1.105295e+01,6.944774e+01,4.502961e+03,-5.193138e+02,4.532808e+03,-6.5787
1.396135e+01,8.772177e+01,4.450599e+03,-6.247470e+02,4.494234e+03,-7.9906
1.763505e+01,1.108043e+02,4.380634e+03,-7.480976e+02,4.444053e+03,-9.6911
2.227543e+01,1.399607e+02,4.287240e+03,-8.897758e+02,4.378599e+03,-11.7247
2.813684e+01,1.767890e+02,4.163353e+03,-1.048404e+03,4.293327e+03,-14.1342
3.554059e+01,2.233081e+02,4.001106e+03,-1.219776e+03,4.182906e+03,-16.9543
4.489251e+01,2.820680e+02,3.792968e+03,-1.395770e+03,4.041631e+03,-20.2031
5.670524e+01,3.562895e+02,3.533781e+03,-1.563723e+03,3.864303e+03,-23.8697
7.162629e+01,4.500413e+02,3.223550e+03,-1.707030e+03,3.647633e+03,-27.9034
9.047357e+01,5.684622e+02,2.870047e+03,-1.807738e+03,3.391915e+03,-32.2053
1.142802e+02,7.180437e+02,2.489643e+03,-1.850996e+03,3.102339e+03,-36.6300
1.443512e+02,9.069851e+02,2.104969e+03,-1.829814e+03,2.789106e+03,-40.9999
1.823348e+02,1.145643e+03,1.739726e+03,-1.747592e+03,2.465913e+03,-45.1292
2.303132e+02,1.447101e+03,1.412961e+03,-1.616868e+03,2.147259e+03,-48.8502
2.909163e+02,1.827881e+03,1.135557e+03,-1.455074e+03,1.845733e+03,-52.0311
3.674662e+02,2.308858e+03,9.100323e+02,-1.279709e+03,1.570291e+03,-54.5824
4.641589e+02,2.916396e+03,7.327226e+02,-1.105003e+03,1.325863e+03,-56.4518
5.862947e+02,3.683798e+03,5.966500e+02,-9.406667e+02,1.113932e+03,-57.6137
7.405685e+02,4.653129e+03,4.938857e+02,-7.921805e+02,9.335272e+02,-58.0585
9.354369e+02,5.877523e+03,4.169960e+02,-6.617941e+02,7.822129e+02,-57.7850
1.181582e+03,7.424097e+03,3.596943e+02,-5.496199e+02,6.568577e+02,-56.7976
1.492496e+03,9.377626e+03,3.169848e+02,-4.545323e+02,5.541471e+02,-55.1086
1.885221e+03,1.184519e+04,2.850491e+02,-3.747999e+02,4.708800e+02,-52.7457
2.381286e+03,1.496206e+04,2.610381e+02,-3.084887e+02,4.041116e+02,-49.7627
3.007883e+03,1.889908e+04,2.428555e+02,-2.536936e+02,3.511968e+02,-46.2504
3.799357e+03,2.387207e+04,2.289693e+02,-2.086599e+02,3.097837e+02,-42.3429
4.799096e+03,3.015361e+04,2.182611e+02,-1.718356e+02,2.777866e+02,-38.2131
6.061899e+03,3.808803e+04,2.099105e+02,-1.418844e+02,2.533645e+02,-34.0559
7.656988e+03,4.811028e+04,2.033104e+02,-1.176779e+02,2.349110e+02,-30.0626
9.671799e+03,6.076970e+04,1.980041e+02,-9.827746e+01,2.210522e+02,-26.3971
1.221677e+04,7.676025e+04,1.936391e+02,-8.291211e+01,2.106431e+02,-23.1796
1.543142e+04,9.695845e+04,1.899331e+02,-7.095566e+01,2.027543e+02,-20.4848
1.949194e+04,1.224715e+05,1.866466e+02,-6.190419e+01,1.966446e+02,-18.3489
2.462092e+04,1.546978e+05,1.835623e+02,-5.535370e+01,1.917268e+02,-16.7808
3.109952e+04,1.954040e+05,1.804665e+02,-5.097698e+01,1.875282e+02,-15.7736
3.928284e+04,2.468214e+05,1.771348e+02,-4.849774e+01,1.836539e+02,-15.3118
4.961948e+04,3.117684e+05,1.733223e+02,-4.765982e+01,1.797557e+02,-15.3751
6.267603e+04,3.938051e+05,1.687635e+02,-4.819012e+01,1.755090e+02,-15.9366
7.916819e+04,4.974284e+05,1.631884e+02,-4.975699e+01,1.706054e+02,-16.9567
1.000000e+05,6.283185e+05,1.563651e+02,-5.193317e+01,1.647637e+02,-18.3728
