f_Hz,omega_rad_s,Z_real_Ohm,Z_imag_Ohm,Z_mag_Ohm,Z_phase_deg
1.000000e-02,6.283185e-02,3.549272e+03,-2.300368e+02,3.556718e+03,-3.7083
1.263134e-02,7.936502e-02,3.523950e+03,-2.048881e+02,3.529902e+03,-3.3275
1.595506e-02,1.002486e-01,3.501410e+03,-1.825576e+02,3.506166e+03,-2.9846
2.015338e-02,1.266274e-01,3.481343e+03,-1.627451e+02,3.485144e+03,-2.6765
2.545641e-02,1.599473e-01,3.463472e+03,-1.451857e+02,3.466514e+03,-2.4004
3.215484e-02,2.020348e-01,3.447553e+03,-1.296465e+02,3.449990e+03,-2.1536
4.061586e-02,2.551970e-01,3.433367e+03,-1.159242e+02,3.435324e+03,-1.9338
5.130326e-02,3.223479e-01,3.420719e+03,-1.038418e+02,3.422295e+03,-1.7388
6.480286e-02,4.071684e-01,3.409432e+03,-9.324751e+01,3.410707e+03,-1.5666
8.185467e-02,5.143081e-01,3.399351e+03,-8.401272e+01,3.400389e+03,-1.4157
1.033934e-01,6.496398e-01,3.390332e+03,-7.603108e+01,3.391185e+03,-1.2847
1.305997e-01,8.205818e-01,3.382249e+03,-6.921788e+01,3.382957e+03,-1.1724
1.649648e-01,1.036504e+00,3.374985e+03,-6.350992e+01,3.375583e+03,-1.0781
2.083726e-01,1.309244e+00,3.368434e+03,-5.886588e+01,3.368948e+03,-1.0012
2.632024e-01,1.653749e+00,3.362495e+03,-5.526731e+01,3.362949e+03,-0.9417
3.324598e-01,2.088906e+00,3.357077e+03,-5.272021e+01,3.357491e+03,-0.8997
4.199411e-01,2.638568e+00,3.352090e+03,-5.125736e+01,3.352481e+03,-0.8761
5.304417e-01,3.332864e+00,3.347445e+03,-5.094158e+01,3.347833e+03,-0.8719
6.700188e-01,4.209852e+00,3.343055e+03,-5.186980e+01,3.343457e+03,-0.8889
8.463232e-01,5.317605e+00,3.338825e+03,-5.417839e+01,3.339265e+03,-0.9296
1.069019e+00,6.716846e+00,3.334655e+03,-5.804975e+01,3.335160e+03,-0.9973
1.350314e+00,8.484273e+00,3.330430e+03,-6.372034e+01,3.331040e+03,-1.0961
1.705627e+00,1.071677e+01,3.326016e+03,-7.149032e+01,3.326784e+03,-1.2313
2.154435e+00,1.353671e+01,3.321248e+03,-8.173498e+01,3.322254e+03,-1.4097
2.721339e+00,1.709868e+01,3.315921e+03,-9.491780e+01,3.317279e+03,-1.6396
3.437414e+00,2.159791e+01,3.309769e+03,-1.116050e+02,3.311650e+03,-1.9313
4.341913e+00,2.728105e+01,3.302441e+03,-1.324806e+02,3.305098e+03,-2.2972
5.484417e+00,3.445961e+01,3.293469e+03,-1.583606e+02,3.297274e+03,-2.7528
6.927551e+00,4.352708e+01,3.282216e+03,-1.902029e+02,3.287723e+03,-3.3166
8.750422e+00,5.498052e+01,3.267812e+03,-2.291080e+02,3.275833e+03,-4.0105
1.105295e+01,6.944774e+01,3.249064e+03,-2.762988e+02,3.260791e+03,-4.8607
1.396135e+01,8.772177e+01,3.224343e+03,-3.330674e+02,3.241500e+03,-5.8976
1.763505e+01,1.108043e+02,3.191446e+03,-4.006598e+02,3.216498e+03,-7.1556
2.227543e+01,1.399607e+02,3.147444e+03,-4.800674e+02,3.183845e+03,-8.6723
2.813684e+01,1.767890e+02,3.088565e+03,-5.716804e+02,3.141027e+03,-10.4865
3.554059e+01,2.233081e+02,3.010192e+03,-6.747664e+02,3.084893e+03,-12.6346
4.489251e+01,2.820680e+02,2.907115e+03,-7.867809e+02,3.011701e+03,-15.1437
5.670524e+01,3.562895e+02,2.774243e+03,-9.026251e+02,2.917388e+03,-18.0228
7.162629e+01,4.500413e+02,2.607926e+03,-1.014171e+03,2.798182e+03,-21.2501
9.047357e+01,5.684622e+02,2.407817e+03,-1.110580e+03,2.651598e+03,-24.7610
1.142802e+02,7.180437e+02,2.178676e+03,-1.179950e+03,2.477682e+03,-28.4395
1.443512e+02,9.069851e+02,1.931046e+03,-1.212272e+03,2.280031e+03,-32.1198
1.823348e+02,1.145643e+03,1.679802e+03,-1.202687e+03,2.065960e+03,-35.6015
2.303132e+02,1.447101e+03,1.440687e+03,-1.153309e+03,1.845454e+03,-38.6782
2.909163e+02,1.827881e+03,1.226412e+03,-1.072472e+03,1.629197e+03,-41.1690
3.674662e+02,2.308858e+03,1.044213e+03,-9.718977e+02,1.426523e+03,-42.9457
4.641589e+02,2.916396e+03,8.956608e+02,-8.634154e+02,1.244064e+03,-43.9498
5.862947e+02,3.683798e+03,7.781131e+02,-7.566846e+02,1.085372e+03,-44.2001
7.405685e+02,4.653129e+03,6.866451e+02,-6.583365e+02,9.512562e+02,-43.7942
9.354369e+02,5.877523e+03,6.156189e+02,-5.721576e+02,8.404469e+02,-42.9045
1.181582e+03,7.424097e+03,5.596284e+02,-4.997342e+02,7.502787e+02,-41.7641
1.492496e+03,9.377626e+03,5.139106e+02,-4.411302e+02,6.772739e+02,-40.6421
1.885221e+03,1.184519e+04,4.744378e+02,-3.953993e+02,6.176017e+02,-39.8080
2.381286e+03,1.496206e+04,4.378890e+02,-3.608886e+02,5.674393e+02,-39.4938
3.007883e+03,1.889908e+04,4.016425e+02,-3.353854e+02,5.232591e+02,-39.8631
3.799357e+03,2.387207e+04,3.638704e+02,-3.162123e+02,4.820704e+02,-40.9914
4.799096e+03,3.015361e+04,3.237258e+02,-3.004040e+02,4.416345e+02,-42.8600
6.061899e+03,3.808803e+04,2.815086e+02,-2.850707e+02,4.006399e+02,-45.3602
7.656988e+03,4.811028e+04,2.386122e+02,-2.679246e+02,3.587749e+02,-48.3119
9.671799e+03,6.076970e+04,1.971210e+02,-2.477628e+02,3.166119e+02,-51.4941
1.221677e+04,7.676025e+04,1.591490e+02,-2.246257e+02,2.752909e+02,-54.6821
1.543142e+04,9.695845e+04,1.262281e+02,-1.995239e+02,2.361002e+02,-57.6807
1.949194e+04,1.224715e+05,9.901912e+01,-1.739020e+02,2.001167e+02,-60.3430
2.462092e+04,1.546978e+05,7.738799e+01,-1.491320e+02,1.680156e+02,-62.5742
3.109952e+04,1.954040e+05,6.068582e+01,-1.262205e+02,1.400514e+02,-64.3221
3.928284e+04,2.468214e+05,4.804663e+01,-1.057400e+02,1.161440e+02,-65.5637
4.961948e+04,3.117684e+05,3.859996e+01,-8.789532e+01,9.599762e+01,-66.2909
6.267603e+04,3.938051e+05,3.158284e+01,-7.263744e+01,7.920652e+01,-66.5005
7.916819e+04,4.974284e+05,2.637756e+01,-5.976901e+01,6.533077e+01,-66.1869
1.000000e+05,6.283185e+05,2.250795e+01,-4.902306e+01,5.394319e+01,-65.3387
