f_Hz,omega_rad_s,Z_real_Ohm,Z_imag_Ohm,Z_mag_Ohm,Z_phase_deg
1.000000e-02,6.283185e-02,1.421279e+03,-2.514307e+02,1.443348e+03,-10.0321
1.263134e-02,7.936502e-02,1.393568e+03,-2.237445e+02,1.411415e+03,-9.1213
1.595506e-02,1.002486e-01,1.368909e+03,-1.991165e+02,1.383315e+03,-8.2760
2.015338e-02,1.266274e-01,1.346967e+03,-1.772112e+02,1.358574e+03,-7.4950
2.545641e-02,1.599473e-01,1.327441e+03,-1.577302e+02,1.336779e+03,-6.7763
3.215484e-02,2.020348e-01,1.310065e+03,-1.404083e+02,1.317568e+03,-6.1174
4.061586e-02,2.551970e-01,1.294602e+03,-1.250102e+02,1.300623e+03,-5.5155
5.130326e-02,3.223479e-01,1.280839e+03,-1.113271e+02,1.285668e+03,-4.9675
6.480286e-02,4.071684e-01,1.268589e+03,-9.917394e+01,1.272460e+03,-4.4701
8.185467e-02,5.143081e-01,1.257684e+03,-8.838701e+01,1.260786e+03,-4.0200
1.033934e-01,6.496398e-01,1.247975e+03,-7.882180e+01,1.250462e+03,-3.6140
1.305997e-01,8.205818e-01,1.239328e+03,-7.035115e+01,1.241324e+03,-3.2489
1.649648e-01,1.036504e+00,1.231626e+03,-6.286366e+01,1.233229e+03,-2.9219
2.083726e-01,1.309244e+00,1.224761e+03,-5.626237e+01,1.226052e+03,-2.6302
2.632024e-01,1.653749e+00,1.218639e+03,-5.046369e+01,1.219684e+03,-2.3713
3.324598e-01,2.088906e+00,1.213176e+03,-4.539650e+01,1.214025e+03,-2.1430
4.199411e-01,2.638568e+00,1.208294e+03,-4.100160e+01,1.208990e+03,-1.9435
5.304417e-01,3.332864e+00,1.203926e+03,-3.723131e+01,1.204502e+03,-1.7713
6.700188e-01,4.209852e+00,1.200009e+03,-3.404935e+01,1.200492e+03,-1.6253
8.463232e-01,5.317605e+00,1.196487e+03,-3.143106e+01,1.196900e+03,-1.5048
1.069019e+00,6.716846e+00,1.193306e+03,-2.936385e+01,1.193667e+03,-1.4096
1.350314e+00,8.484273e+00,1.190419e+03,-2.784804e+01,1.190744e+03,-1.3401
1.705627e+00,1.071677e+01,1.187777e+03,-2.689807e+01,1.188082e+03,-1.2973
2.154435e+00,1.353671e+01,1.185337e+03,-2.654425e+01,1.185635e+03,-1.2829
2.721339e+00,1.709868e+01,1.183053e+03,-2.683490e+01,1.183357e+03,-1.2994
3.437414e+00,2.159791e+01,1.180876e+03,-2.783921e+01,1.181204e+03,-1.3505
4.341913e+00,2.728105e+01,1.178755e+03,-2.965078e+01,1.179128e+03,-1.4409
5.484417e+00,3.445961e+01,1.176631e+03,-3.239190e+01,1.177077e+03,-1.5769
6.927551e+00,4.352708e+01,1.174433e+03,-3.621870e+01,1.174992e+03,-1.7664
8.750422e+00,5.498052e+01,1.172074e+03,-4.132714e+01,1.172803e+03,-2.0194
1.105295e+01,6.944774e+01,1.169441e+03,-4.795979e+01,1.170424e+03,-2.3484
1.396135e+01,8.772177e+01,1.166386e+03,-5.641292e+01,1.167749e+03,-2.7690
1.763505e+01,1.108043e+02,1.162706e+03,-6.704331e+01,1.164638e+03,-3.3001
2.227543e+01,1.399607e+02,1.158125e+03,-8.027316e+01,1.160904e+03,-3.9650
2.813684e+01,1.767890e+02,1.152258e+03,-9.659027e+01,1.156299e+03,-4.7917
3.554059e+01,2.233081e+02,1.144569e+03,-1.165386e+02,1.150486e+03,-5.8137
4.489251e+01,2.820680e+02,1.134315e+03,-1.406907e+02,1.143006e+03,-7.0704
5.670524e+01,3.562895e+02,1.120475e+03,-1.695894e+02,1.133236e+03,-8.6067
7.162629e+01,4.500413e+02,1.101680e+03,-2.036388e+02,1.120343e+03,-10.4726
9.047357e+01,5.684622e+02,1.076156e+03,-2.429231e+02,1.103234e+03,-12.7203
1.142802e+02,7.180437e+02,1.041743e+03,-2.869344e+02,1.080537e+03,-15.3995
1.443512e+02,9.069851e+02,9.960559e+02,-3.342208e+02,1.050634e+03,-18.5489
1.823348e+02,1.145643e+03,9.369149e+02,-3.820390e+02,1.011812e+03,-22.1838
2.303132e+02,1.447101e+03,8.630849e+02,-4.262121e+02,9.625862e+02,-26.2813
2.909163e+02,1.827881e+03,7.752246e+02,-4.614936e+02,9.021916e+02,-30.7655
3.674662e+02,2.308858e+03,6.766238e+02,-4.826493e+02,8.311258e+02,-35.5010
4.641589e+02,2.916396e+03,5.731180e+02,-4.860569e+02,7.514756e+02,-40.3010
5.862947e+02,3.683798e+03,4.718620e+02,-4.710652e+02,6.667504e+02,-44.9516
7.405685e+02,4.653129e+03,3.794075e+02,-4.402598e+02,5.811874e+02,-49.2459
9.354369e+02,5.877523e+03,3.001060e+02,-3.984498e+02,4.988245e+02,-53.0135
1.181582e+03,7.424097e+03,2.355797e+02,-3.510484e+02,4.227680e+02,-56.1354
1.492496e+03,9.377626e+03,1.852097e+02,-3.027302e+02,3.548918e+02,-58.5418
1.885221e+03,1.184519e+04,1.470708e+02,-2.567970e+02,2.959299e+02,-60.1997
2.381286e+03,1.496206e+04,1.187847e+02,-2.151605e+02,2.457720e+02,-61.0980
3.007883e+03,1.889908e+04,9.806872e+01,-1.786421e+02,2.037903e+02,-61.2346
3.799357e+03,2.387207e+04,8.298998e+01,-1.473399e+02,1.691047e+02,-60.6094
4.799096e+03,3.015361e+04,7.202784e+01,-1.209369e+02,1.407613e+02,-59.2227
6.061899e+03,3.808803e+04,6.403876e+01,-9.891691e+01,1.178368e+02,-57.0810
7.656988e+03,4.811028e+04,5.818653e+01,-8.069875e+01,9.948849e+01,-54.2071
9.671799e+03,6.076970e+04,5.386980e+01,-6.571180e+01,8.497056e+01,-50.6555
1.221677e+04,7.676025e+04,5.065997e+01,-5.343343e+01,7.363127e+01,-46.5262
1.543142e+04,9.695845e+04,4.825258e+01,-4.340397e+01,6.490159e+01,-41.9719
1.949194e+04,1.224715e+05,4.643122e+01,-3.522935e+01,5.828349e+01,-37.1891
2.462092e+04,1.546978e+05,4.504148e+01,-2.857726e+01,5.334224e+01,-32.3937
3.109952e+04,1.954040e+05,4.397256e+01,-2.317063e+01,4.970376e+01,-27.7863
3.928284e+04,2.468214e+05,4.314432e+01,-1.878027e+01,4.705455e+01,-23.5230
4.961948e+04,3.117684e+05,4.249830e+01,-1.521762e+01,4.514069e+01,-19.7012
6.267603e+04,3.938051e+05,4.199145e+01,-1.232817e+01,4.376375e+01,-16.3616
7.916819e+04,4.974284e+05,4.159175e+01,-9.985661e+00,4.277368e+01,-13.5005
1.000000e+05,6.283185e+05,4.127517e+01,-8.087182e+00,4.205998e+01,-11.0857
