f_Hz,omega_rad_s,Z_real_Ohm,Z_imag_Ohm,Z_mag_Ohm,Z_phase_deg
1.000000e-02,6.283185e-02,4.615084e+03,-2.669252e+02,4.622796e+03,-3.3102
1.263134e-02,7.936502e-02,4.585728e+03,-2.380062e+02,4.591900e+03,-2.9711
1.595506e-02,1.002486e-01,4.559575e+03,-2.123784e+02,4.564519e+03,-2.6668
2.015338e-02,1.266274e-01,4.536266e+03,-1.897006e+02,4.540231e+03,-2.3946
2.545641e-02,1.599473e-01,4.515479e+03,-1.696737e+02,4.518666e+03,-2.1519
3.215484e-02,2.020348e-01,4.496927e+03,-1.520372e+02,4.499496e+03,-1.9364
4.061586e-02,2.551970e-01,4.480351e+03,-1.365658e+02,4.482432e+03,-1.7459
5.130326e-02,3.223479e-01,4.465520e+03,-1.230671e+02,4.467215e+03,-1.5786
6.480286e-02,4.071684e-01,4.452225e+03,-1.113798e+02,4.453618e+03,-1.4330
8.185467e-02,5.143081e-01,4.440275e+03,-1.013719e+02,4.441432e+03,-1.3078
1.033934e-01,6.496398e-01,4.429498e+03,-9.294053e+01,4.430473e+03,-1.2020
1.305997e-01,8.205818e-01,4.419733e+03,-8.601101e+01,4.420570e+03,-1.1149
1.649648e-01,1.036504e+00,4.410832e+03,-8.053783e+01,4.411567e+03,-1.0461
2.083726e-01,1.309244e+00,4.402653e+03,-7.650548e+01,4.403318e+03,-0.9955
2.632024e-01,1.653749e+00,4.395061e+03,-7.393031e+01,4.395683e+03,-0.9637
3.324598e-01,2.088906e+00,4.387922e+03,-7.286317e+01,4.388527e+03,-0.9513
4.199411e-01,2.638568e+00,4.381101e+03,-7.339289e+01,4.381716e+03,-0.9597
5.304417e-01,3.332864e+00,4.374456e+03,-7.565079e+01,4.375110e+03,-0.9908
6.700188e-01,4.209852e+00,4.367836e+03,-7.981619e+01,4.368565e+03,-1.0469
8.463232e-01,5.317605e+00,4.361073e+03,-8.612311e+01,4.361923e+03,-1.1313
1.069019e+00,6.716846e+00,4.353975e+03,-9.486813e+01,4.355008e+03,-1.2482
1.350314e+00,8.484273e+00,4.346315e+03,-1.064193e+02,4.347618e+03,-1.4026
1.705627e+00,1.071677e+01,4.337821e+03,-1.212263e+02,4.339515e+03,-1.6008
2.154435e+00,1.353671e+01,4.328157e+03,-1.398304e+02,4.330415e+03,-1.8504
2.721339e+00,1.709868e+01,4.316900e+03,-1.628748e+02,4.319972e+03,-2.1607
3.437414e+00,2.159791e+01,4.303513e+03,-1.911127e+02,4.307754e+03,-2.5428
4.341913e+00,2.728105e+01,4.287303e+03,-2.254107e+02,4.293224e+03,-3.0096
5.484417e+00,3.445961e+01,4.267372e+03,-2.667435e+02,4.275700e+03,-3.5768
6.927551e+00,4.352708e+01,4.242552e+03,-3.161736e+02,4.254317e+03,-4.2621
8.750422e+00,5.498052e+01,4.211328e+03,-3.748043e+02,4.227973e+03,-5.0859
1.105295e+01,6.944774e+01,4.171739e+03,-4.436937e+02,4.195268e+03,-6.0710
1.396135e+01,8.772177e+01,4.121294e+03,-5.237090e+02,4.154436e+03,-7.2420
1.763505e+01,1.108043e+02,4.056890e+03,-6.152993e+02,4.103285e+03,-8.6242
2.227543e+01,1.399607e+02,3.974802e+03,-7.181665e+02,4.039160e+03,-10.2417
2.813684e+01,1.767890e+02,3.870804e+03,-8.308340e+02,3.958966e+03,-12.1142
3.554059e+01,2.233081e+02,3.740521e+03,-9.501535e+02,3.859312e+03,-14.2526
4.489251e+01,2.820680e+02,3.580103e+03,-1.070875e+03,3.736832e+03,-16.6529
5.670524e+01,3.562895e+02,3.387277e+03,-1.185503e+03,3.588741e+03,-19.2894
7.162629e+01,4.500413e+02,3.162610e+03,-1.284755e+03,3.413605e+03,-22.1086
9.047357e+01,5.684622e+02,2.910623e+03,-1.358827e+03,3.212186e+03,-25.0256
1.142802e+02,7.180437e+02,2.640122e+03,-1.399416e+03,2.988078e+03,-27.9262
1.443512e+02,9.069851e+02,2.363266e+03,-1.401869e+03,2.747774e+03,-30.6761
1.823348e+02,1.145643e+03,2.093401e+03,-1.366585e+03,2.499976e+03,-33.1368
2.303132e+02,1.447101e+03,1.842412e+03,-1.298951e+03,2.254275e+03,-35.1849
2.909163e+02,1.827881e+03,1.618635e+03,-1.207845e+03,2.019621e+03,-36.7307
3.674662e+02,2.308858e+03,1.426029e+03,-1.103461e+03,1.803104e+03,-37.7327
4.641589e+02,2.916396e+03,1.264580e+03,-9.953362e+02,1.609303e+03,-38.2059
5.862947e+02,3.683798e+03,1.131424e+03,-8.911369e+02,1.440224e+03,-38.2248
7.405685e+02,4.653129e+03,1.022078e+03,-7.962356e+02,1.295621e+03,-37.9199
9.354369e+02,5.877523e+03,9.314268e+02,-7.138338e+02,1.173505e+03,-37.4661
1.181582e+03,7.424097e+03,8.543539e+02,-6.453159e+02,1.070679e+03,-37.0647
1.492496e+03,9.377626e+03,7.860830e+02,-5.906096e+02,9.832325e+02,-36.9187
1.885221e+03,1.184519e+04,7.223754e+02,-5.484466e+02,9.069840e+02,-37.2067
2.381286e+03,1.496206e+04,6.597169e+02,-5.165268e+02,8.378701e+02,-38.0592
3.007883e+03,1.889908e+04,5.955874e+02,-4.916787e+02,7.723162e+02,-39.5409
3.799357e+03,2.387207e+04,5.288020e+02,-4.701635e+02,7.075912e+02,-41.6406
4.799096e+03,3.015361e+04,4.597727e+02,-4.482365e+02,6.421113e+02,-44.2721
6.061899e+03,3.808803e+04,3.904421e+02,-4.229147e+02,5.755883e+02,-47.2863
7.656988e+03,4.811028e+04,3.237294e+02,-3.926669e+02,5.089086e+02,-50.4965
9.671799e+03,6.076970e+04,2.626251e+02,-3.576588e+02,4.437248e+02,-53.7106
1.221677e+04,7.676025e+04,2.093373e+02,-3.194086e+02,3.818952e+02,-56.7596
1.543142e+04,9.695845e+04,1.648639e+02,-2.800686e+02,3.249901e+02,-59.5166
1.949194e+04,1.224715e+05,1.290624e+02,-2.417188e+02,2.740165e+02,-61.9006
2.462092e+04,1.546978e+05,1.010185e+02,-2.059355e+02,2.293778e+02,-63.8704
3.109952e+04,1.954040e+05,7.946416e+01,-1.736669e+02,1.909836e+02,-65.4127
3.928284e+04,2.468214e+05,6.309052e+01,-1.453095e+02,1.584148e+02,-66.5305
4.961948e+04,3.117684e+05,5.072454e+01,-1.208628e+02,1.310755e+02,-67.2328
6.267603e+04,3.938051e+05,4.139719e+01,-1.000826e+02,1.083063e+02,-67.5285
7.916819e+04,4.974284e+05,3.434733e+01,-8.260017e+01,8.945685e+01,-67.4212
1.000000e+05,6.283185e+05,2.899558e+01,-6.800265e+01,7.392634e+01,-66.9071
