f_Hz,omega_rad_s,Z_real_Ohm,Z_imag_Ohm,Z_mag_Ohm,Z_phase_deg
1.000000e-02,6.283185e-02,1.358509e+03,-2.544312e+02,1.382129e+03,-10.6079
1.263134e-02,7.936502e-02,1.330466e+03,-2.264161e+02,1.349594e+03,-9.6580
1.595506e-02,1.002486e-01,1.305513e+03,-2.014958e+02,1.320971e+03,-8.7739
2.015338e-02,1.266274e-01,1.283308e+03,-1.793306e+02,1.295777e+03,-7.9551
2.545641e-02,1.599473e-01,1.263548e+03,-1.596185e+02,1.273590e+03,-7.1998
3.215484e-02,2.020348e-01,1.245963e+03,-1.420913e+02,1.254039e+03,-6.5060
4.061586e-02,2.551970e-01,1.230313e+03,-1.265106e+02,1.236800e+03,-5.8710
5.130326e-02,3.223479e-01,1.216384e+03,-1.126651e+02,1.221590e+03,-5.2918
6.480286e-02,4.071684e-01,1.203985e+03,-1.003675e+02,1.208161e+03,-4.7653
8.185467e-02,5.143081e-01,1.192946e+03,-8.945190e+01,1.196295e+03,-4.2882
1.033934e-01,6.496398e-01,1.183117e+03,-7.977190e+01,1.185803e+03,-3.8573
1.305997e-01,8.205818e-01,1.174362e+03,-7.119850e+01,1.176518e+03,-3.4694
1.649648e-01,1.036504e+00,1.166561e+03,-6.361858e+01,1.168295e+03,-3.1215
2.083726e-01,1.309244e+00,1.159608e+03,-5.693352e+01,1.161004e+03,-2.8108
2.632024e-01,1.653749e+00,1.153404e+03,-5.105800e+01,1.154534e+03,-2.5347
3.324598e-01,2.088906e+00,1.147865e+03,-4.591916e+01,1.148784e+03,-2.2908
4.199411e-01,2.638568e+00,1.142914e+03,-4.145587e+01,1.143665e+03,-2.0773
5.304417e-01,3.332864e+00,1.138479e+03,-3.761829e+01,1.139100e+03,-1.8925
6.700188e-01,4.209852e+00,1.134498e+03,-3.436766e+01,1.135019e+03,-1.7351
8.463232e-01,5.317605e+00,1.130914e+03,-3.167632e+01,1.131357e+03,-1.6044
1.069019e+00,6.716846e+00,1.127671e+03,-2.952806e+01,1.128058e+03,-1.4999
1.350314e+00,8.484273e+00,1.124721e+03,-2.791868e+01,1.125067e+03,-1.4219
1.705627e+00,1.071677e+01,1.122016e+03,-2.685700e+01,1.122337e+03,-1.3712
2.154435e+00,1.353671e+01,1.119508e+03,-2.636615e+01,1.119819e+03,-1.3492
2.721339e+00,1.709868e+01,1.117152e+03,-2.648539e+01,1.117466e+03,-1.3581
3.437414e+00,2.159791e+01,1.114898e+03,-2.727238e+01,1.115232e+03,-1.4013
4.341913e+00,2.728105e+01,1.112695e+03,-2.880598e+01,1.113068e+03,-1.4830
5.484417e+00,3.445961e+01,1.110483e+03,-3.118968e+01,1.110921e+03,-1.6088
6.927551e+00,4.352708e+01,1.108192e+03,-3.455572e+01,1.108730e+03,-1.7860
8.750422e+00,5.498052e+01,1.105738e+03,-3.906970e+01,1.106428e+03,-2.0236
1.105295e+01,6.944774e+01,1.103014e+03,-4.493581e+01,1.103929e+03,-2.3329
1.396135e+01,8.772177e+01,1.099883e+03,-5.240216e+01,1.101130e+03,-2.7277
1.763505e+01,1.108043e+02,1.096162e+03,-6.176564e+01,1.097901e+03,-3.2250
2.227543e+01,1.399607e+02,1.091606e+03,-7.337519e+01,1.094069e+03,-3.8455
2.813684e+01,1.767890e+02,1.085883e+03,-8.763108e+01,1.089413e+03,-4.6138
3.554059e+01,2.233081e+02,1.078539e+03,-1.049768e+02,1.083636e+03,-5.5592
4.489251e+01,2.820680e+02,1.068960e+03,-1.258772e+02,1.076346e+03,-6.7160
5.670524e+01,3.562895e+02,1.056314e+03,-1.507741e+02,1.067020e+03,-8.1233
7.162629e+01,4.500413e+02,1.039503e+03,-1.800063e+02,1.054974e+03,-9.8242
9.047357e+01,5.684622e+02,1.017124e+03,-2.136777e+02,1.039326e+03,-11.8642
1.142802e+02,7.180437e+02,9.874661e+02,-2.514625e+02,1.018981e+03,-14.2870
1.443512e+02,9.069851e+02,9.486227e+02,-2.923506e+02,9.926500e+02,-17.1285
1.823348e+02,1.145643e+03,8.987619e+02,-3.343806e+02,9.589491e+02,-20.4075
2.303132e+02,1.447101e+03,8.366267e+02,-3.744831e+02,9.166143e+02,-24.1138
2.909163e+02,1.827881e+03,7.622172e+02,-4.086278e+02,8.648421e+02,-28.1959
3.674662e+02,2.308858e+03,6.774319e+02,-4.324586e+02,8.037004e+02,-32.5533
4.641589e+02,2.916396e+03,5.862650e+02,-4.423905e+02,7.344495e+02,-37.0379
5.862947e+02,3.683798e+03,4.942230e+02,-4.367738e+02,6.595663e+02,-41.4689
7.405685e+02,4.653129e+03,4.070398e+02,-4.164990e+02,5.823683e+02,-45.6581
9.354369e+02,5.877523e+03,3.292780e+02,-3.846665e+02,5.063520e+02,-49.4362
1.181582e+03,7.424097e+03,2.634919e+02,-3.455284e+02,4.345317e+02,-52.6717
1.492496e+03,9.377626e+03,2.102069e+02,-3.033099e+02,3.690309e+02,-55.2764
1.885221e+03,1.184519e+04,1.684708e+02,-2.614119e+02,3.109961e+02,-57.1996
2.381286e+03,1.496206e+04,1.365599e+02,-2.221265e+02,2.607465e+02,-58.4175
3.007883e+03,1.889908e+04,1.125468e+02,-1.867238e+02,2.180197e+02,-58.9208
3.799357e+03,2.387207e+04,9.464234e+01,-1.557031e+02,1.822104e+02,-58.7072
4.799096e+03,3.015361e+04,8.134431e+01,-1.290592e+02,1.525555e+02,-57.7773
6.061899e+03,3.808803e+04,7.146609e+01,-1.064990e+02,1.282554e+02,-56.1364
7.656988e+03,4.811028e+04,6.410537e+01,-8.759166e+01,1.085440e+02,-53.8009
9.671799e+03,6.076970e+04,5.859213e+01,-7.186289e+01,9.272169e+01,-50.8085
1.221677e+04,7.676025e+04,5.443575e+01,-5.884895e+01,8.016515e+01,-47.2309
1.543142e+04,9.695845e+04,5.127956e+01,-4.812400e+01,7.032434e+01,-43.1818
1.949194e+04,1.224715e+05,4.886481e+01,-3.931144e+01,6.271490e+01,-38.8165
2.462092e+04,1.546978e+05,4.700356e+01,-3.208622e+01,5.691098e+01,-34.3188
3.109952e+04,1.954040e+05,4.555875e+01,-2.617228e+01,5.254130e+01,-29.8762
3.928284e+04,2.468214e+05,4.442981e+01,-2.133778e+01,4.928802e+01,-25.6530
4.961948e+04,3.117684e+05,4.354240e+01,-1.738954e+01,4.688643e+01,-21.7703
6.267603e+04,3.938051e+05,4.284115e+01,-1.416752e+01,4.512297e+01,-18.2990
7.916819e+04,4.974284e+05,4.228440e+01,-1.153970e+01,4.383076e+01,-15.2647
1.000000e+05,6.283185e+05,4.184060e+01,-9.397475e+00,4.288296e+01,-12.6587
